
T62C0 000:341 SEGGER J-Link V4.98e Log File (0001ms, 0276ms total)
T62C0 000:341 DLL Compiled: May  5 2015 11:00:52 (0001ms, 0276ms total)
T62C0 000:341 Logging started @ 2019-04-29 17:16 (0001ms, 0276ms total)
T62C0 000:342 JLINK_SetWarnOutHandler(...) (0000ms, 0276ms total)
T62C0 000:342 JLINK_OpenEx(...)
Firmware: J-Link V9 compiled Aug 23 2018 09:45:44
Hardware: V9.40
S/N: 59407970
Feature(s): RDI, GDB, FlashDL, FlashBP, JFlash  returns O.K. (0275ms, 0551ms total)
T62C0 000:617 JLINK_SetErrorOutHandler(...) (0000ms, 0551ms total)
T62C0 000:617 JLINK_ExecCommand("ProjectFile = "C:\WorkingFiles\2nd_PCB\RUN_III\MotorControllingUnit\Firmware\USER\JLinkSettings.ini"", ...)  returns 0x00 (0001ms, 0552ms total)
T62C0 000:618 JLINK_ExecCommand("Device = STM32F103RC", ...)Device "STM32F103RC" selected.  returns 0x00 (0001ms, 0553ms total)
T62C0 000:619 JLINK_ExecCommand("DisableConnectionTimeout", ...)  returns 0x01 (0000ms, 0553ms total)
T62C0 000:619 JLINK_GetHardwareVersion()  returns 0x16F30 (0000ms, 0553ms total)
T62C0 000:619 JLINK_GetDLLVersion()  returns 49805 (0000ms, 0553ms total)
T62C0 000:619 JLINK_GetFirmwareString(...) (0000ms, 0553ms total)
T62C0 000:619 JLINK_GetDLLVersion()  returns 49805 (0000ms, 0553ms total)
T62C0 000:619 JLINK_GetCompileDateTime() (0000ms, 0553ms total)
T62C0 000:619 JLINK_GetFirmwareString(...) (0000ms, 0553ms total)
T62C0 000:619 JLINK_GetHardwareVersion()  returns 0x16F30 (0000ms, 0553ms total)
T62C0 000:619 JLINK_TIF_Select(JLINKARM_TIF_SWD)  returns 0x00 (0001ms, 0554ms total)
T62C0 000:620 JLINK_SetSpeed(5000) (0000ms, 0554ms total)
T62C0 000:620 JLINK_GetId() >0x108 TIF>Found SWD-DP with ID 0x1BA01477 >0x0D TIF> >0x28 TIF> >0x0D TIF> >0x28 TIF> >0x0D TIF> >0x21 TIF> >0x0D TIF> >0x28 TIF> >0x0D TIF> >0x28 TIF> >0x0D TIF> >0x28 TIF> >0x0D TIF> >0x21 TIF> >0x0D TIF> >0x21 TIF> >0x0D TIF> >0x28 TIF> >0x0D TIF> >0x21 TIF> >0x0D TIF> >0x21 TIF> >0x108 TIF>Found SWD-DP with ID 0x1BA01477 >0x0D TIF> >0x21 TIF> >0x0D TIF> >0x28 TIF> >0x0D TIF> >0x28 TIF> >0x0D TIF> >0x21 TIF> >0x0D TIF> >0x28 TIF> >0x0D TIF> >0x21 TIF> >0x0D TIF> >0x21 TIF>
 >0x0D TIF> >0x21 TIF> >0x0D TIF> >0x21 TIF> >0x0D TIF> >0x28 TIF> >0x0D TIF> >0x28 TIF> >0x0D TIF> >0x21 TIF> >0x0D TIF> >0x28 TIF> >0x0D TIF> >0x28 TIF> >0x0D TIF> >0x28 TIF> >0x0D TIF> >0x21 TIF> >0x0D TIF> >0x21 TIF> >0x0D TIF> >0x28 TIF> >0x0D TIF> >0x21 TIF> >0x0D TIF> >0x21 TIF>Found Cortex-M3 r1p1, Little endian. -- CPU_WriteMem(4 bytes @ 0xE0002000) -- CPU_ReadMem(4 bytes @ 0xE000EDF0) -- CPU_ReadMem(4 bytes @ 0xE0002000)FPUnit: 6 code (BP) slots and 2 literal slots
 -- CPU_ReadMem(4 bytes @ 0xE000EDFC) -- CPU_ReadMem(4 bytes @ 0xE0001000) -- CPU_WriteMem(4 bytes @ 0xE0001000) -- CPU_ReadMem(4 bytes @ 0xE000ED88) -- CPU_WriteMem(4 bytes @ 0xE000ED88) -- CPU_ReadMem(4 bytes @ 0xE000ED88) -- CPU_WriteMem(4 bytes @ 0xE000ED88)CoreSight components:ROMTbl 0 @ E00FF000 -- CPU_ReadMem(16 bytes @ 0xE00FF000) -- CPU_ReadMem(16 bytes @ 0xE000EFF0) -- CPU_ReadMem(16 bytes @ 0xE000EFE0)ROMTbl 0 [0]: FFF0F000, CID: B105E00D, PID: 001BB000 SCS
 -- CPU_ReadMem(16 bytes @ 0xE0001FF0) -- CPU_ReadMem(16 bytes @ 0xE0001FE0)ROMTbl 0 [1]: FFF02000, CID: B105E00D, PID: 001BB002 DWT -- CPU_ReadMem(16 bytes @ 0xE0002FF0) -- CPU_ReadMem(16 bytes @ 0xE0002FE0)ROMTbl 0 [2]: FFF03000, CID: B105E00D, PID: 000BB003 FPB -- CPU_ReadMem(16 bytes @ 0xE0000FF0) -- CPU_ReadMem(16 bytes @ 0xE0000FE0)ROMTbl 0 [3]: FFF01000, CID: B105E00D, PID: 001BB001 ITM -- CPU_ReadMem(16 bytes @ 0xE00FF010) -- CPU_ReadMem(16 bytes @ 0xE0040FF0)
 -- CPU_ReadMem(16 bytes @ 0xE0040FE0)ROMTbl 0 [4]: FFF41000, CID: B105900D, PID: 001BB923 TPIU-Lite -- CPU_ReadMem(16 bytes @ 0xE0041FF0) -- CPU_ReadMem(16 bytes @ 0xE0041FE0)ROMTbl 0 [5]: FFF42000, CID: B105900D, PID: 101BB924 ETM-M3 >0x0D TIF> >0x21 TIF>  returns 0x1BA01477 (0027ms, 0581ms total)
T62C0 000:647 JLINK_GetDLLVersion()  returns 49805 (0000ms, 0581ms total)
T62C0 000:647 JLINK_CORE_GetFound()  returns 0x30000FF (0000ms, 0581ms total)
T62C0 000:647 JLINK_GetDebugInfo(0x100) -- Value=0xE00FF003  returns 0x00 (0000ms, 0581ms total)
T62C0 000:649 JLINK_ReadMem (0xE00FF000, 0x0020 Bytes, ...) -- CPU is running -- CPU_ReadMem(32 bytes @ 0xE00FF000) - Data: 03 F0 F0 FF 03 20 F0 FF 03 30 F0 FF 03 10 F0 FF ...  returns 0x00 (0000ms, 0581ms total)
T62C0 000:649 JLINK_ReadMem (0xE000EFF0, 0x0010 Bytes, ...) -- CPU is running -- CPU_ReadMem(16 bytes @ 0xE000EFF0) - Data: 0D 00 00 00 E0 00 00 00 05 00 00 00 B1 00 00 00  returns 0x00 (0001ms, 0582ms total)
T62C0 000:650 JLINK_ReadMem (0xE000EFD0, 0x0020 Bytes, ...) -- CPU is running -- CPU_ReadMem(32 bytes @ 0xE000EFD0) - Data: 04 00 00 00 00 00 00 00 00 00 00 00 00 00 00 00 ...  returns 0x00 (0000ms, 0582ms total)
T62C0 000:650 JLINK_ReadMem (0xE0001FF0, 0x0010 Bytes, ...) -- CPU is running -- CPU_ReadMem(16 bytes @ 0xE0001FF0) - Data: 0D 00 00 00 E0 00 00 00 05 00 00 00 B1 00 00 00  returns 0x00 (0001ms, 0583ms total)
T62C0 000:651 JLINK_ReadMem (0xE0001FD0, 0x0020 Bytes, ...) -- CPU is running -- CPU_ReadMem(32 bytes @ 0xE0001FD0) - Data: 04 00 00 00 00 00 00 00 00 00 00 00 00 00 00 00 ...  returns 0x00 (0000ms, 0583ms total)
T62C0 000:651 JLINK_ReadMem (0xE0002FF0, 0x0010 Bytes, ...) -- CPU is running -- CPU_ReadMem(16 bytes @ 0xE0002FF0) - Data: 0D 00 00 00 E0 00 00 00 05 00 00 00 B1 00 00 00  returns 0x00 (0001ms, 0584ms total)
T62C0 000:652 JLINK_ReadMem (0xE0002FD0, 0x0020 Bytes, ...) -- CPU is running -- CPU_ReadMem(32 bytes @ 0xE0002FD0) - Data: 04 00 00 00 00 00 00 00 00 00 00 00 00 00 00 00 ...  returns 0x00 (0000ms, 0584ms total)
T62C0 000:652 JLINK_ReadMem (0xE0000FF0, 0x0010 Bytes, ...) -- CPU is running -- CPU_ReadMem(16 bytes @ 0xE0000FF0) - Data: 0D 00 00 00 E0 00 00 00 05 00 00 00 B1 00 00 00  returns 0x00 (0001ms, 0585ms total)
T62C0 000:653 JLINK_ReadMem (0xE0000FD0, 0x0020 Bytes, ...) -- CPU is running -- CPU_ReadMem(32 bytes @ 0xE0000FD0) - Data: 04 00 00 00 00 00 00 00 00 00 00 00 00 00 00 00 ...  returns 0x00 (0000ms, 0585ms total)
T62C0 000:653 JLINK_ReadMem (0xE0040FF0, 0x0010 Bytes, ...) -- CPU is running -- CPU_ReadMem(16 bytes @ 0xE0040FF0) - Data: 0D 00 00 00 90 00 00 00 05 00 00 00 B1 00 00 00  returns 0x00 (0001ms, 0586ms total)
T62C0 000:654 JLINK_ReadMem (0xE0040FD0, 0x0020 Bytes, ...) -- CPU is running -- CPU_ReadMem(32 bytes @ 0xE0040FD0) - Data: 04 00 00 00 00 00 00 00 00 00 00 00 00 00 00 00 ...  returns 0x00 (0000ms, 0586ms total)
T62C0 000:654 JLINK_ReadMem (0xE0041FF0, 0x0010 Bytes, ...) -- CPU is running -- CPU_ReadMem(16 bytes @ 0xE0041FF0) - Data: 0D 00 00 00 90 00 00 00 05 00 00 00 B1 00 00 00  returns 0x00 (0001ms, 0587ms total)
T62C0 000:655 JLINK_ReadMem (0xE0041FD0, 0x0020 Bytes, ...) -- CPU is running -- CPU_ReadMem(32 bytes @ 0xE0041FD0) - Data: 04 00 00 00 00 00 00 00 00 00 00 00 00 00 00 00 ...  returns 0x00 (0000ms, 0587ms total)
T62C0 000:656 JLINK_ReadMemU32(0xE000ED00, 0x0001 Items, ...) -- CPU is running -- CPU_ReadMem(4 bytes @ 0xE000ED00) - Data: 31 C2 1F 41  returns 0x01 (0000ms, 0588ms total)
T62C0 000:656 JLINK_SetResetType(JLINKARM_RESET_TYPE_NORMAL)  returns JLINKARM_RESET_TYPE_NORMAL (0000ms, 0588ms total)
T62C0 000:656 JLINK_Reset() -- CPU is running -- CPU_WriteMem(4 bytes @ 0xE000EDF0) -- CPU is running -- CPU_WriteMem(4 bytes @ 0xE000EDFC) >0x35 TIF> -- CPU is running -- CPU_WriteMem(4 bytes @ 0xE000ED0C) -- CPU is running -- CPU_ReadMem(4 bytes @ 0xE000EDF0) -- CPU is running -- CPU_ReadMem(4 bytes @ 0xE000EDF0) -- CPU is running -- CPU_WriteMem(4 bytes @ 0xE000EDF0) -- CPU is running -- CPU_WriteMem(4 bytes @ 0xE000EDFC) -- CPU is running -- CPU_ReadMem(4 bytes @ 0xE000EDF0)
 -- CPU_WriteMem(4 bytes @ 0xE0002000) -- CPU_ReadMem(4 bytes @ 0xE000EDFC) -- CPU_ReadMem(4 bytes @ 0xE0001000) (0015ms, 0603ms total)
T62C0 000:671 JLINK_ReadReg(R15 (PC))  returns 0x080090C8 (0000ms, 0603ms total)
T62C0 000:671 JLINK_ReadReg(XPSR)  returns 0x01000000 (0000ms, 0603ms total)
T62C0 000:671 JLINK_Halt()  returns 0x00 (0000ms, 0603ms total)
T62C0 000:671 JLINK_IsHalted()  returns TRUE (0000ms, 0603ms total)
T62C0 000:671 JLINK_ReadMemU32(0xE000EDF0, 0x0001 Items, ...) -- CPU_ReadMem(4 bytes @ 0xE000EDF0) - Data: 03 00 03 00  returns 0x01 (0000ms, 0603ms total)
T62C0 000:671 JLINK_WriteU32(0xE000EDF0, 0xA05F0003) -- CPU_WriteMem(4 bytes @ 0xE000EDF0)  returns 0x00 (0001ms, 0604ms total)
T62C0 000:672 JLINK_WriteU32(0xE000EDFC, 0x01000000) -- CPU_WriteMem(4 bytes @ 0xE000EDFC)  returns 0x00 (0000ms, 0604ms total)
T62C0 000:673 JLINK_GetHWStatus(...)  returns 0x00 (0000ms, 0604ms total)
T62C0 000:674 JLINK_GetNumBPUnits(Type = 0xFFFFFF00)  returns 0x06 (0000ms, 0604ms total)
T62C0 000:674 JLINK_GetNumBPUnits(Type = 0xF0)  returns 0x2000 (0000ms, 0604ms total)
T62C0 000:674 JLINK_GetNumWPUnits()  returns 0x04 (0000ms, 0604ms total)
T62C0 000:674 JLINK_GetSpeed()  returns 0xFA0 (0000ms, 0604ms total)
T62C0 000:674 JLINK_ReadMemU32(0xE000E004, 0x0001 Items, ...) -- CPU_ReadMem(4 bytes @ 0xE000E004) - Data: 01 00 00 00  returns 0x01 (0001ms, 0605ms total)
T62C0 000:675 JLINK_ReadMemU32(0xE000E004, 0x0001 Items, ...) -- CPU_ReadMem(4 bytes @ 0xE000E004) - Data: 01 00 00 00  returns 0x01 (0000ms, 0605ms total)
T62C0 000:675 JLINK_WriteMem(0xE0001000, 0x001C Bytes, ...) - Data: 01 00 00 00 00 00 00 00 00 00 00 00 00 00 00 00 ... -- CPU_WriteMem(28 bytes @ 0xE0001000)  returns 0x1C (0001ms, 0606ms total)
T62C0 000:676 JLINK_ReadMem (0xE0001000, 0x001C Bytes, ...) -- CPU_ReadMem(28 bytes @ 0xE0001000) - Data: 01 00 00 40 00 00 00 00 00 00 00 00 00 00 00 00 ...  returns 0x00 (0001ms, 0607ms total)
T62C0 000:677 JLINK_ReadReg(R15 (PC))  returns 0x080090C8 (0000ms, 0607ms total)
T62C0 000:677 JLINK_ReadReg(XPSR)  returns 0x01000000 (0000ms, 0607ms total)
T62C0 000:834 JLINK_SetResetType(JLINKARM_RESET_TYPE_NORMAL)  returns JLINKARM_RESET_TYPE_NORMAL (0000ms, 0607ms total)
T62C0 000:834 JLINK_Reset() -- CPU_WriteMem(4 bytes @ 0xE000EDF0) -- CPU_WriteMem(4 bytes @ 0xE000EDFC) >0x35 TIF> -- CPU_WriteMem(4 bytes @ 0xE000ED0C) -- CPU_ReadMem(4 bytes @ 0xE000EDF0) -- CPU_ReadMem(4 bytes @ 0xE000EDF0) -- CPU_WriteMem(4 bytes @ 0xE000EDF0) -- CPU_WriteMem(4 bytes @ 0xE000EDFC) -- CPU is running -- CPU_ReadMem(4 bytes @ 0xE000EDF0) -- CPU_WriteMem(4 bytes @ 0xE0002000) -- CPU_ReadMem(4 bytes @ 0xE000EDFC) -- CPU_ReadMem(4 bytes @ 0xE0001000) (0016ms, 0623ms total)
T62C0 000:850 JLINK_ReadReg(R15 (PC))  returns 0x080090C8 (0000ms, 0623ms total)
T62C0 000:850 JLINK_ReadReg(XPSR)  returns 0x01000000 (0000ms, 0623ms total)
T62C0 000:852 JLINK_ReadMem (0x080090C8, 0x003C Bytes, ...) -- CPU_ReadMem(128 bytes @ 0x080090C0) -- Updating C cache (128 bytes @ 0x080090C0) -- Read from C cache (60 bytes @ 0x080090C8) - Data: 09 48 80 47 09 48 00 47 FE E7 FE E7 FE E7 FE E7 ...  returns 0x00 (0001ms, 0624ms total)
T62C0 001:166 JLINK_ReadMem (0x40012400, 0x004C Bytes, ...) -- CPU_ReadMem(76 bytes @ 0x40012400) - Data: 00 00 00 00 00 00 00 00 00 00 00 00 00 00 00 00 ...  returns 0x00 (0001ms, 0625ms total)
T62C0 001:167 JLINK_ReadMem (0x4001244C, 0x0004 Bytes, ...) -- CPU_ReadMem(4 bytes @ 0x4001244C) - Data: 00 00 00 00  returns 0x00 (0000ms, 0625ms total)
T62C0 001:293 JLINK_ReadMem (0x40010C00, 0x000C Bytes, ...) -- CPU_ReadMem(12 bytes @ 0x40010C00) - Data: 44 44 48 44 44 44 44 44 00 00 00 00  returns 0x00 (0000ms, 0625ms total)
T62C0 001:293 JLINK_ReadMem (0x40010C0C, 0x0004 Bytes, ...) -- CPU_ReadMem(4 bytes @ 0x40010C0C) - Data: 10 00 00 00  returns 0x00 (0001ms, 0626ms total)
T62C0 001:294 JLINK_ReadMem (0x40010C18, 0x0004 Bytes, ...) -- CPU_ReadMem(4 bytes @ 0x40010C18) - Data: 00 00 00 00  returns 0x00 (0000ms, 0626ms total)
T62C0 001:461 JLINK_ReadMem (0x40011000, 0x000C Bytes, ...) -- CPU_ReadMem(12 bytes @ 0x40011000) - Data: 44 44 44 44 44 44 44 44 00 00 00 00  returns 0x00 (0001ms, 0627ms total)
T62C0 001:462 JLINK_ReadMem (0x4001100C, 0x0004 Bytes, ...) -- CPU_ReadMem(4 bytes @ 0x4001100C) - Data: 00 00 00 00  returns 0x00 (0000ms, 0627ms total)
T62C0 001:462 JLINK_ReadMem (0x40011018, 0x0004 Bytes, ...) -- CPU_ReadMem(4 bytes @ 0x40011018) - Data: 00 00 00 00  returns 0x00 (0000ms, 0627ms total)
T62C0 001:622 JLINK_ReadMem (0x40012C00, 0x0010 Bytes, ...) -- CPU_ReadMem(16 bytes @ 0x40012C00) - Data: 00 00 00 00 00 00 00 00 00 00 00 00 00 00 00 00  returns 0x00 (0000ms, 0627ms total)
T62C0 001:622 JLINK_ReadMem (0x40012C10, 0x0004 Bytes, ...) -- CPU_ReadMem(4 bytes @ 0x40012C10) - Data: 00 00 00 00  returns 0x00 (0000ms, 0627ms total)
T62C0 001:622 JLINK_ReadMem (0x40012C18, 0x0014 Bytes, ...) -- CPU_ReadMem(20 bytes @ 0x40012C18) - Data: 00 00 00 00 00 00 00 00 00 00 00 00 00 00 00 00 ...  returns 0x00 (0001ms, 0628ms total)
T62C0 001:623 JLINK_ReadMem (0x40012C2C, 0x0004 Bytes, ...) -- CPU_ReadMem(4 bytes @ 0x40012C2C) - Data: 00 00 00 00  returns 0x00 (0000ms, 0628ms total)
T62C0 001:623 JLINK_ReadMem (0x40012C30, 0x0004 Bytes, ...) -- CPU_ReadMem(4 bytes @ 0x40012C30) - Data: 00 00 00 00  returns 0x00 (0000ms, 0628ms total)
T62C0 001:623 JLINK_ReadMem (0x40012C34, 0x000C Bytes, ...) -- CPU_ReadMem(12 bytes @ 0x40012C34) - Data: 00 00 00 00 00 00 00 00 00 00 00 00  returns 0x00 (0001ms, 0629ms total)
T62C0 001:624 JLINK_ReadMem (0x40012C40, 0x0004 Bytes, ...) -- CPU_ReadMem(4 bytes @ 0x40012C40) - Data: 00 00 00 00  returns 0x00 (0000ms, 0629ms total)
T62C0 001:624 JLINK_ReadMem (0x40012C44, 0x0004 Bytes, ...) -- CPU_ReadMem(4 bytes @ 0x40012C44) - Data: 00 00 00 00  returns 0x00 (0000ms, 0629ms total)
T62C0 001:624 JLINK_ReadMem (0x40012C48, 0x0004 Bytes, ...) -- CPU_ReadMem(4 bytes @ 0x40012C48) - Data: 00 00 00 00  returns 0x00 (0001ms, 0630ms total)
T62C0 001:625 JLINK_ReadMem (0x40012C4C, 0x0004 Bytes, ...) -- CPU_ReadMem(4 bytes @ 0x40012C4C) - Data: 00 00 00 00  returns 0x00 (0000ms, 0630ms total)
T62C0 001:792 JLINK_ReadMem (0x40000000, 0x0010 Bytes, ...) -- CPU_ReadMem(16 bytes @ 0x40000000) - Data: 00 00 00 00 00 00 00 00 00 00 00 00 00 00 00 00  returns 0x00 (0000ms, 0630ms total)
T62C0 001:792 JLINK_ReadMem (0x40000010, 0x0004 Bytes, ...) -- CPU_ReadMem(4 bytes @ 0x40000010) - Data: 00 00 00 00  returns 0x00 (0001ms, 0631ms total)
T62C0 001:793 JLINK_ReadMem (0x40000018, 0x0014 Bytes, ...) -- CPU_ReadMem(20 bytes @ 0x40000018) - Data: 00 00 00 00 00 00 00 00 00 00 00 00 00 00 00 00 ...  returns 0x00 (0000ms, 0631ms total)
T62C0 001:793 JLINK_ReadMem (0x4000002C, 0x0004 Bytes, ...) -- CPU_ReadMem(4 bytes @ 0x4000002C) - Data: 00 00 00 00  returns 0x00 (0000ms, 0631ms total)
T62C0 001:793 JLINK_ReadMem (0x40000034, 0x000C Bytes, ...) -- CPU_ReadMem(12 bytes @ 0x40000034) - Data: 00 00 00 00 00 00 00 00 00 00 00 00  returns 0x00 (0001ms, 0632ms total)
T62C0 001:794 JLINK_ReadMem (0x40000040, 0x0004 Bytes, ...) -- CPU_ReadMem(4 bytes @ 0x40000040) - Data: 00 00 00 00  returns 0x00 (0000ms, 0632ms total)
T62C0 001:794 JLINK_ReadMem (0x40000048, 0x0004 Bytes, ...) -- CPU_ReadMem(4 bytes @ 0x40000048) - Data: 00 00 00 00  returns 0x00 (0001ms, 0633ms total)
T62C0 001:795 JLINK_ReadMem (0x4000004C, 0x0004 Bytes, ...) -- CPU_ReadMem(4 bytes @ 0x4000004C) - Data: 00 00 00 00  returns 0x00 (0000ms, 0633ms total)
T62C0 005:789 JLINK_ReadMem (0x20000009, 0x0001 Bytes, ...) -- CPU_ReadMem(64 bytes @ 0x20000000) -- Updating C cache (64 bytes @ 0x20000000) -- Read from C cache (1 bytes @ 0x20000009) - Data: 40  returns 0x00 (0001ms, 0634ms total)
T62C0 005:792 JLINK_ReadMem (0x20000008, 0x0001 Bytes, ...) -- Read from C cache (1 bytes @ 0x20000008) - Data: 68  returns 0x00 (0000ms, 0634ms total)
T62C0 005:793 JLINK_ReadMem (0x20000100, 0x0001 Bytes, ...) -- CPU_ReadMem(64 bytes @ 0x20000100) -- Updating C cache (64 bytes @ 0x20000100) -- Read from C cache (1 bytes @ 0x20000100) - Data: 13  returns 0x00 (0001ms, 0635ms total)
T62C0 005:798 JLINK_ReadMem (0x200000FE, 0x0002 Bytes, ...) -- CPU_ReadMem(64 bytes @ 0x200000C0) -- Updating C cache (64 bytes @ 0x200000C0) -- Read from C cache (2 bytes @ 0x200000FE) - Data: 22 E0  returns 0x00 (0001ms, 0636ms total)
T62C0 005:801 JLINK_ReadMem (0x200000AF, 0x0001 Bytes, ...) -- CPU_ReadMem(64 bytes @ 0x20000080) -- Updating C cache (64 bytes @ 0x20000080) -- Read from C cache (1 bytes @ 0x200000AF) - Data: 49  returns 0x00 (0001ms, 0637ms total)
T62C0 005:804 JLINK_ReadMem (0x20000101, 0x0001 Bytes, ...) -- Read from C cache (1 bytes @ 0x20000101) - Data: 48  returns 0x00 (0000ms, 0637ms total)
T62C0 005:808 JLINK_ReadMem (0x20000130, 0x0020 Bytes, ...) -- CPU_ReadMem(64 bytes @ 0x20000140) -- Updating C cache (64 bytes @ 0x20000140) -- Read from C cache (32 bytes @ 0x20000130) - Data: 06 D0 20 46 C0 68 40 F0 14 00 E0 60 01 20 10 BD ...  returns 0x00 (0001ms, 0638ms total)
T62C0 005:818 JLINK_ReadMem (0x2000009E, 0x0001 Bytes, ...) -- Read from C cache (1 bytes @ 0x2000009E) - Data: C0  returns 0x00 (0000ms, 0638ms total)
T62C0 005:821 JLINK_ReadMem (0x200000EF, 0x0001 Bytes, ...) -- Read from C cache (1 bytes @ 0x200000EF) - Data: 61  returns 0x00 (0000ms, 0638ms total)
T223C 006:187 JLINK_SetBPEx(Addr = 0x0800023E, Type = 0xFFFFFFF2)  returns 0x00000001 (0000ms, 0638ms total)
T223C 006:187 JLINK_Go() -- CPU_WriteMem(4 bytes @ 0xE0002000) -- CPU_ReadMem(4 bytes @ 0xE0001000) -- CPU_WriteMem(4 bytes @ 0xE0002008) -- CPU_WriteMem(4 bytes @ 0xE000200C) -- CPU_WriteMem(4 bytes @ 0xE0002010) -- CPU_WriteMem(4 bytes @ 0xE0002014) -- CPU_WriteMem(4 bytes @ 0xE0002018) -- CPU_WriteMem(4 bytes @ 0xE000201C) -- CPU_WriteMem(4 bytes @ 0xE0001004) (0003ms, 0641ms total)
T223C 006:291 JLINK_IsHalted()  returns TRUE (0002ms, 0643ms total)
T223C 006:293 JLINK_Halt()  returns 0x00 (0000ms, 0641ms total)
T223C 006:293 JLINK_IsHalted()  returns TRUE (0000ms, 0641ms total)
T223C 006:293 JLINK_IsHalted()  returns TRUE (0000ms, 0641ms total)
T223C 006:293 JLINK_IsHalted()  returns TRUE (0000ms, 0641ms total)
T223C 006:293 JLINK_ReadReg(R15 (PC))  returns 0x0800023E (0000ms, 0641ms total)
T223C 006:293 JLINK_ReadReg(XPSR)  returns 0x61000000 (0000ms, 0641ms total)
T223C 006:293 JLINK_ClrBPEx(BPHandle = 0x00000001)  returns 0x00 (0000ms, 0641ms total)
T223C 006:293 JLINK_ReadMemU32(0xE000ED30, 0x0001 Items, ...) -- CPU_ReadMem(4 bytes @ 0xE000ED30) - Data: 02 00 00 00  returns 0x01 (0000ms, 0641ms total)
T223C 006:293 JLINK_ReadMemU32(0xE0001028, 0x0001 Items, ...) -- CPU_ReadMem(4 bytes @ 0xE0001028) - Data: 00 00 00 00  returns 0x01 (0001ms, 0642ms total)
T223C 006:294 JLINK_ReadMemU32(0xE0001038, 0x0001 Items, ...) -- CPU_ReadMem(4 bytes @ 0xE0001038) - Data: 00 02 00 00  returns 0x01 (0000ms, 0642ms total)
T223C 006:294 JLINK_ReadMemU32(0xE0001048, 0x0001 Items, ...) -- CPU_ReadMem(4 bytes @ 0xE0001048) - Data: 00 00 00 00  returns 0x01 (0001ms, 0643ms total)
T223C 006:295 JLINK_ReadMemU32(0xE0001058, 0x0001 Items, ...) -- CPU_ReadMem(4 bytes @ 0xE0001058) - Data: 00 00 00 00  returns 0x01 (0000ms, 0643ms total)
T223C 006:295 JLINK_ReadReg(R0)  returns 0x20000678 (0000ms, 0643ms total)
T223C 006:295 JLINK_ReadReg(R1)  returns 0x20000878 (0000ms, 0643ms total)
T223C 006:295 JLINK_ReadReg(R2)  returns 0x20000878 (0000ms, 0643ms total)
T223C 006:295 JLINK_ReadReg(R3)  returns 0x20000878 (0000ms, 0643ms total)
T223C 006:295 JLINK_ReadReg(R4)  returns 0x00000000 (0000ms, 0643ms total)
T223C 006:295 JLINK_ReadReg(R5)  returns 0x20000614 (0000ms, 0643ms total)
T223C 006:295 JLINK_ReadReg(R6)  returns 0x00000000 (0000ms, 0643ms total)
T223C 006:295 JLINK_ReadReg(R7)  returns 0x00000000 (0000ms, 0643ms total)
T223C 006:295 JLINK_ReadReg(R8)  returns 0x00000000 (0000ms, 0643ms total)
T223C 006:295 JLINK_ReadReg(R9)  returns 0x20000160 (0000ms, 0643ms total)
T223C 006:295 JLINK_ReadReg(R10)  returns 0x0800B4BC (0000ms, 0643ms total)
T223C 006:296 JLINK_ReadReg(R11)  returns 0x00000000 (0000ms, 0644ms total)
T223C 006:296 JLINK_ReadReg(R12)  returns 0x20000654 (0000ms, 0644ms total)
T223C 006:296 JLINK_ReadReg(R13 (SP))  returns 0x20004878 (0000ms, 0644ms total)
T223C 006:296 JLINK_ReadReg(R14)  returns 0x080001DB (0000ms, 0644ms total)
T223C 006:296 JLINK_ReadReg(R15 (PC))  returns 0x0800023E (0000ms, 0644ms total)
T223C 006:296 JLINK_ReadReg(XPSR)  returns 0x61000000 (0000ms, 0644ms total)
T223C 006:296 JLINK_ReadReg(MSP)  returns 0x20004878 (0000ms, 0644ms total)
T223C 006:296 JLINK_ReadReg(PSP)  returns 0x20001000 (0000ms, 0644ms total)
T223C 006:296 JLINK_ReadReg(CFBP)  returns 0x00000000 (0000ms, 0644ms total)
T62C0 006:316 JLINK_ReadMem (0x20000009, 0x0001 Bytes, ...) -- CPU_ReadMem(64 bytes @ 0x20000000) -- Updating C cache (64 bytes @ 0x20000000) -- Read from C cache (1 bytes @ 0x20000009) - Data: 00  returns 0x00 (0001ms, 0645ms total)
T62C0 006:318 JLINK_ReadMem (0x20000008, 0x0001 Bytes, ...) -- Read from C cache (1 bytes @ 0x20000008) - Data: 00  returns 0x00 (0000ms, 0645ms total)
T62C0 006:319 JLINK_ReadMem (0x20000100, 0x0001 Bytes, ...) -- CPU_ReadMem(64 bytes @ 0x20000100) -- Updating C cache (64 bytes @ 0x20000100) -- Read from C cache (1 bytes @ 0x20000100) - Data: 00  returns 0x00 (0001ms, 0646ms total)
T62C0 006:320 JLINK_ReadMem (0x200000FE, 0x0002 Bytes, ...) -- CPU_ReadMem(64 bytes @ 0x200000C0) -- Updating C cache (64 bytes @ 0x200000C0) -- Read from C cache (2 bytes @ 0x200000FE) - Data: 00 00  returns 0x00 (0001ms, 0647ms total)
T62C0 006:321 JLINK_ReadMem (0x200000AF, 0x0001 Bytes, ...) -- CPU_ReadMem(64 bytes @ 0x20000080) -- Updating C cache (64 bytes @ 0x20000080) -- Read from C cache (1 bytes @ 0x200000AF) - Data: 00  returns 0x00 (0001ms, 0648ms total)
T62C0 006:323 JLINK_ReadMem (0x20000101, 0x0001 Bytes, ...) -- Read from C cache (1 bytes @ 0x20000101) - Data: 00  returns 0x00 (0000ms, 0648ms total)
T62C0 006:323 JLINK_ReadMem (0x20000130, 0x0020 Bytes, ...) -- CPU_ReadMem(64 bytes @ 0x20000140) -- Updating C cache (64 bytes @ 0x20000140) -- Read from C cache (32 bytes @ 0x20000130) - Data: 00 00 00 00 00 00 00 00 00 00 00 00 00 00 00 00 ...  returns 0x00 (0001ms, 0649ms total)
T62C0 006:333 JLINK_ReadMem (0x2000009E, 0x0001 Bytes, ...) -- Read from C cache (1 bytes @ 0x2000009E) - Data: 00  returns 0x00 (0000ms, 0649ms total)
T62C0 006:333 JLINK_ReadMem (0x200000EF, 0x0001 Bytes, ...) -- Read from C cache (1 bytes @ 0x200000EF) - Data: 00  returns 0x00 (0000ms, 0649ms total)
T62C0 006:334 JLINK_ReadMem (0x40010C00, 0x000C Bytes, ...) -- CPU_ReadMem(12 bytes @ 0x40010C00) - Data: 44 44 48 44 44 44 44 44 00 00 00 00  returns 0x00 (0000ms, 0649ms total)
T62C0 006:334 JLINK_ReadMem (0x40010C0C, 0x0004 Bytes, ...) -- CPU_ReadMem(4 bytes @ 0x40010C0C) - Data: 10 00 00 00  returns 0x00 (0001ms, 0650ms total)
T62C0 006:335 JLINK_ReadMem (0x40010C18, 0x0004 Bytes, ...) -- CPU_ReadMem(4 bytes @ 0x40010C18) - Data: 00 00 00 00  returns 0x00 (0000ms, 0650ms total)
T62C0 006:340 JLINK_ReadMem (0x40011000, 0x000C Bytes, ...) -- CPU_ReadMem(12 bytes @ 0x40011000) - Data: 44 44 44 44 44 44 44 44 00 00 00 00  returns 0x00 (0001ms, 0651ms total)
T62C0 006:341 JLINK_ReadMem (0x4001100C, 0x0004 Bytes, ...) -- CPU_ReadMem(4 bytes @ 0x4001100C) - Data: 00 00 00 00  returns 0x00 (0000ms, 0651ms total)
T62C0 006:341 JLINK_ReadMem (0x40011018, 0x0004 Bytes, ...) -- CPU_ReadMem(4 bytes @ 0x40011018) - Data: 00 00 00 00  returns 0x00 (0000ms, 0651ms total)
T62C0 006:346 JLINK_ReadMem (0x40012C00, 0x0010 Bytes, ...) -- CPU_ReadMem(16 bytes @ 0x40012C00) - Data: 00 00 00 00 00 00 00 00 00 00 00 00 00 00 00 00  returns 0x00 (0000ms, 0651ms total)
T62C0 006:346 JLINK_ReadMem (0x40012C10, 0x0004 Bytes, ...) -- CPU_ReadMem(4 bytes @ 0x40012C10) - Data: 00 00 00 00  returns 0x00 (0001ms, 0652ms total)
T62C0 006:347 JLINK_ReadMem (0x40012C18, 0x0014 Bytes, ...) -- CPU_ReadMem(20 bytes @ 0x40012C18) - Data: 00 00 00 00 00 00 00 00 00 00 00 00 00 00 00 00 ...  returns 0x00 (0000ms, 0652ms total)
T62C0 006:347 JLINK_ReadMem (0x40012C2C, 0x0004 Bytes, ...) -- CPU_ReadMem(4 bytes @ 0x40012C2C) - Data: 00 00 00 00  returns 0x00 (0001ms, 0653ms total)
T62C0 006:348 JLINK_ReadMem (0x40012C30, 0x0004 Bytes, ...) -- CPU_ReadMem(4 bytes @ 0x40012C30) - Data: 00 00 00 00  returns 0x00 (0001ms, 0654ms total)
T62C0 006:350 JLINK_ReadMem (0x40012C34, 0x000C Bytes, ...) -- CPU_ReadMem(12 bytes @ 0x40012C34) - Data: 00 00 00 00 00 00 00 00 00 00 00 00  returns 0x00 (0000ms, 0654ms total)
T62C0 006:351 JLINK_ReadMem (0x40012C40, 0x0004 Bytes, ...) -- CPU_ReadMem(4 bytes @ 0x40012C40) - Data: 00 00 00 00  returns 0x00 (0000ms, 0654ms total)
T62C0 006:351 JLINK_ReadMem (0x40012C44, 0x0004 Bytes, ...) -- CPU_ReadMem(4 bytes @ 0x40012C44) - Data: 00 00 00 00  returns 0x00 (0000ms, 0654ms total)
T62C0 006:351 JLINK_ReadMem (0x40012C48, 0x0004 Bytes, ...) -- CPU_ReadMem(4 bytes @ 0x40012C48) - Data: 00 00 00 00  returns 0x00 (0001ms, 0655ms total)
T62C0 006:352 JLINK_ReadMem (0x40012C4C, 0x0004 Bytes, ...) -- CPU_ReadMem(4 bytes @ 0x40012C4C) - Data: 00 00 00 00  returns 0x00 (0000ms, 0655ms total)
T62C0 006:359 JLINK_ReadMem (0x40000000, 0x0010 Bytes, ...) -- CPU_ReadMem(16 bytes @ 0x40000000) - Data: 00 00 00 00 00 00 00 00 00 00 00 00 00 00 00 00  returns 0x00 (0001ms, 0656ms total)
T62C0 006:360 JLINK_ReadMem (0x40000010, 0x0004 Bytes, ...) -- CPU_ReadMem(4 bytes @ 0x40000010) - Data: 00 00 00 00  returns 0x00 (0000ms, 0656ms total)
T62C0 006:360 JLINK_ReadMem (0x40000018, 0x0014 Bytes, ...) -- CPU_ReadMem(20 bytes @ 0x40000018) - Data: 00 00 00 00 00 00 00 00 00 00 00 00 00 00 00 00 ...  returns 0x00 (0001ms, 0657ms total)
T62C0 006:361 JLINK_ReadMem (0x4000002C, 0x0004 Bytes, ...) -- CPU_ReadMem(4 bytes @ 0x4000002C) - Data: 00 00 00 00  returns 0x00 (0000ms, 0657ms total)
T62C0 006:361 JLINK_ReadMem (0x40000034, 0x000C Bytes, ...) -- CPU_ReadMem(12 bytes @ 0x40000034) - Data: 00 00 00 00 00 00 00 00 00 00 00 00  returns 0x00 (0001ms, 0658ms total)
T62C0 006:362 JLINK_ReadMem (0x40000040, 0x0004 Bytes, ...) -- CPU_ReadMem(4 bytes @ 0x40000040) - Data: 00 00 00 00  returns 0x00 (0000ms, 0658ms total)
T62C0 006:362 JLINK_ReadMem (0x40000048, 0x0004 Bytes, ...) -- CPU_ReadMem(4 bytes @ 0x40000048) - Data: 00 00 00 00  returns 0x00 (0001ms, 0659ms total)
T62C0 006:363 JLINK_ReadMem (0x4000004C, 0x0004 Bytes, ...) -- CPU_ReadMem(4 bytes @ 0x4000004C) - Data: 00 00 00 00  returns 0x00 (0000ms, 0659ms total)
T62C0 006:371 JLINK_ReadMem (0x40012400, 0x004C Bytes, ...) -- CPU_ReadMem(76 bytes @ 0x40012400) - Data: 00 00 00 00 00 00 00 00 00 00 00 00 00 00 00 00 ...  returns 0x00 (0001ms, 0660ms total)
T62C0 006:372 JLINK_ReadMem (0x4001244C, 0x0004 Bytes, ...) -- CPU_ReadMem(4 bytes @ 0x4001244C) - Data: 00 00 00 00  returns 0x00 (0001ms, 0661ms total)
T62C0 006:377 JLINK_ReadMem (0x0800023E, 0x0002 Bytes, ...) -- CPU_ReadMem(64 bytes @ 0x08000200) -- Updating C cache (64 bytes @ 0x08000200) -- Read from C cache (2 bytes @ 0x0800023E) - Data: FC 48  returns 0x00 (0001ms, 0662ms total)
T62C0 006:378 JLINK_ReadMem (0x08000240, 0x003C Bytes, ...) -- CPU_ReadMem(64 bytes @ 0x08000240) -- Updating C cache (64 bytes @ 0x08000240) -- Read from C cache (60 bytes @ 0x08000240) - Data: 00 68 4F F4 7A 72 B0 FB F2 F1 B1 F1 80 7F 00 D3 ...  returns 0x00 (0000ms, 0662ms total)
T223C 045:999 JLINK_Go() -- CPU_ReadMem(4 bytes @ 0xE0001000) -- CPU_WriteMem(4 bytes @ 0xE0002008) (0002ms, 0664ms total)
T223C 046:103 JLINK_IsHalted()  returns FALSE (0000ms, 0664ms total)
T223C 046:203 JLINK_IsHalted()  returns FALSE (0000ms, 0664ms total)
T223C 046:304 JLINK_IsHalted()  returns FALSE (0000ms, 0664ms total)
T223C 046:406 JLINK_IsHalted()  returns FALSE (0000ms, 0664ms total)
T223C 046:507 JLINK_IsHalted()  returns FALSE (0000ms, 0664ms total)
T223C 046:607 JLINK_ReadMemU32(0xE0001004, 0x0001 Items, ...) -- CPU is running -- CPU_ReadMem(4 bytes @ 0xE0001004) - Data: 54 02 9A 02  returns 0x01 (0000ms, 0664ms total)
T62C0 046:608 JLINK_ReadMem (0x20000009, 0x0001 Bytes, ...) -- CPU is running -- CPU_ReadMem(1 bytes @ 0x20000009) - Data: 00  returns 0x00 (0000ms, 0664ms total)
T62C0 046:608 JLINK_ReadMem (0x20000008, 0x0001 Bytes, ...) -- CPU is running -- CPU_ReadMem(1 bytes @ 0x20000008) - Data: 00  returns 0x00 (0001ms, 0665ms total)
T62C0 046:609 JLINK_ReadMem (0x20000100, 0x0001 Bytes, ...) -- CPU is running -- CPU_ReadMem(1 bytes @ 0x20000100) - Data: 00  returns 0x00 (0000ms, 0665ms total)
T62C0 046:609 JLINK_ReadMem (0x200000FE, 0x0002 Bytes, ...) -- CPU is running -- CPU_ReadMem(2 bytes @ 0x200000FE) - Data: 00 00  returns 0x00 (0001ms, 0666ms total)
T62C0 046:610 JLINK_ReadMem (0x200000AF, 0x0001 Bytes, ...) -- CPU is running -- CPU_ReadMem(1 bytes @ 0x200000AF) - Data: 00  returns 0x00 (0000ms, 0666ms total)
T62C0 046:611 JLINK_ReadMem (0x20000101, 0x0001 Bytes, ...) -- CPU is running -- CPU_ReadMem(1 bytes @ 0x20000101) - Data: 00  returns 0x00 (0000ms, 0666ms total)
T62C0 046:616 JLINK_ReadMem (0x20000130, 0x0020 Bytes, ...) -- CPU is running -- CPU_ReadMem(32 bytes @ 0x20000130) - Data: 00 00 00 00 00 00 00 00 00 00 00 00 00 00 00 00 ...  returns 0x00 (0002ms, 0668ms total)
T62C0 046:618 JLINK_ReadMem (0x2000009E, 0x0001 Bytes, ...) -- CPU is running -- CPU_ReadMem(1 bytes @ 0x2000009E) - Data: 00  returns 0x00 (0000ms, 0668ms total)
T62C0 046:618 JLINK_ReadMem (0x200000EF, 0x0001 Bytes, ...) -- CPU is running -- CPU_ReadMem(1 bytes @ 0x200000EF) - Data: 00  returns 0x00 (0001ms, 0669ms total)
T62C0 046:619 JLINK_ReadMem (0x40010C00, 0x000C Bytes, ...) -- CPU is running -- CPU_ReadMem(12 bytes @ 0x40010C00) - Data: 44 43 BB 4B 44 BB 44 34 C5 CF 00 00  returns 0x00 (0002ms, 0671ms total)
T62C0 046:621 JLINK_ReadMem (0x40010C0C, 0x0004 Bytes, ...) -- CPU is running -- CPU_ReadMem(4 bytes @ 0x40010C0C) - Data: 14 80 00 00  returns 0x00 (0000ms, 0671ms total)
T62C0 046:621 JLINK_ReadMem (0x40010C18, 0x0004 Bytes, ...) -- CPU is running -- CPU_ReadMem(4 bytes @ 0x40010C18) - Data: 00 00 00 00  returns 0x00 (0000ms, 0671ms total)
T62C0 046:629 JLINK_ReadMem (0x40011000, 0x000C Bytes, ...) -- CPU is running -- CPU_ReadMem(12 bytes @ 0x40011000) - Data: 33 33 00 BB 4B 44 44 44 08 02 00 00  returns 0x00 (0001ms, 0672ms total)
T62C0 046:630 JLINK_ReadMem (0x4001100C, 0x0004 Bytes, ...) -- CPU is running -- CPU_ReadMem(4 bytes @ 0x4001100C) - Data: 08 00 00 00  returns 0x00 (0000ms, 0672ms total)
T62C0 046:630 JLINK_ReadMem (0x40011018, 0x0004 Bytes, ...) -- CPU is running -- CPU_ReadMem(4 bytes @ 0x40011018) - Data: 00 00 00 00  returns 0x00 (0001ms, 0673ms total)
T62C0 046:635 JLINK_ReadMem (0x40012C00, 0x0010 Bytes, ...) -- CPU is running -- CPU_ReadMem(16 bytes @ 0x40012C00) - Data: 00 00 00 00 3D 00 00 00 00 00 00 00 00 00 00 00  returns 0x00 (0002ms, 0675ms total)
T62C0 046:637 JLINK_ReadMem (0x40012C10, 0x0004 Bytes, ...) -- CPU is running -- CPU_ReadMem(4 bytes @ 0x40012C10) - Data: 21 00 00 00  returns 0x00 (0000ms, 0675ms total)
T62C0 046:637 JLINK_ReadMem (0x40012C18, 0x0014 Bytes, ...) -- CPU is running -- CPU_ReadMem(20 bytes @ 0x40012C18) - Data: 60 60 00 00 00 00 00 00 00 03 00 00 00 00 00 00 ...  returns 0x00 (0001ms, 0676ms total)
T62C0 046:638 JLINK_ReadMem (0x40012C2C, 0x0004 Bytes, ...) -- CPU is running -- CPU_ReadMem(4 bytes @ 0x40012C2C) - Data: 10 27 00 00  returns 0x00 (0000ms, 0676ms total)
T62C0 046:638 JLINK_ReadMem (0x40012C30, 0x0004 Bytes, ...) -- CPU is running -- CPU_ReadMem(4 bytes @ 0x40012C30) - Data: 00 00 00 00  returns 0x00 (0001ms, 0677ms total)
T62C0 046:639 JLINK_ReadMem (0x40012C34, 0x000C Bytes, ...) -- CPU is running -- CPU_ReadMem(12 bytes @ 0x40012C34) - Data: D0 07 00 00 C4 09 00 00 00 00 00 00  returns 0x00 (0000ms, 0677ms total)
T62C0 046:639 JLINK_ReadMem (0x40012C40, 0x0004 Bytes, ...) -- CPU is running -- CPU_ReadMem(4 bytes @ 0x40012C40) - Data: 00 00 00 00  returns 0x00 (0001ms, 0678ms total)
T62C0 046:640 JLINK_ReadMem (0x40012C44, 0x0004 Bytes, ...) -- CPU is running -- CPU_ReadMem(4 bytes @ 0x40012C44) - Data: 00 00 00 00  returns 0x00 (0000ms, 0678ms total)
T62C0 046:640 JLINK_ReadMem (0x40012C48, 0x0004 Bytes, ...) -- CPU is running -- CPU_ReadMem(4 bytes @ 0x40012C48) - Data: 00 00 00 00  returns 0x00 (0001ms, 0679ms total)
T62C0 046:641 JLINK_ReadMem (0x40012C4C, 0x0004 Bytes, ...) -- CPU is running -- CPU_ReadMem(4 bytes @ 0x40012C4C) - Data: 00 00 00 00  returns 0x00 (0001ms, 0680ms total)
T62C0 046:652 JLINK_ReadMem (0x40000000, 0x0010 Bytes, ...) -- CPU is running -- CPU_ReadMem(16 bytes @ 0x40000000) - Data: 81 00 00 00 00 00 00 00 00 00 00 00 00 00 00 00  returns 0x00 (0000ms, 0680ms total)
T62C0 046:652 JLINK_ReadMem (0x40000010, 0x0004 Bytes, ...) -- CPU is running -- CPU_ReadMem(4 bytes @ 0x40000010) - Data: 1F 00 00 00  returns 0x00 (0001ms, 0681ms total)
T62C0 046:653 JLINK_ReadMem (0x40000018, 0x0014 Bytes, ...) -- CPU is running -- CPU_ReadMem(20 bytes @ 0x40000018) - Data: 00 00 00 00 68 68 00 00 00 11 00 00 60 02 00 00 ...  returns 0x00 (0000ms, 0681ms total)
T62C0 046:654 JLINK_ReadMem (0x4000002C, 0x0004 Bytes, ...) -- CPU is running -- CPU_ReadMem(4 bytes @ 0x4000002C) - Data: E8 03 00 00  returns 0x00 (0000ms, 0682ms total)
T62C0 046:654 JLINK_ReadMem (0x40000034, 0x000C Bytes, ...) -- CPU is running -- CPU_ReadMem(12 bytes @ 0x40000034) - Data: 00 00 00 00 00 00 00 00 C8 00 00 00  returns 0x00 (0001ms, 0683ms total)
T62C0 046:655 JLINK_ReadMem (0x40000040, 0x0004 Bytes, ...) -- CPU is running -- CPU_ReadMem(4 bytes @ 0x40000040) - Data: C8 00 00 00  returns 0x00 (0000ms, 0683ms total)
T62C0 046:655 JLINK_ReadMem (0x40000048, 0x0004 Bytes, ...) -- CPU is running -- CPU_ReadMem(4 bytes @ 0x40000048) - Data: 00 00 00 00  returns 0x00 (0001ms, 0684ms total)
T62C0 046:656 JLINK_ReadMem (0x4000004C, 0x0004 Bytes, ...) -- CPU is running -- CPU_ReadMem(4 bytes @ 0x4000004C) - Data: 81 00 00 00  returns 0x00 (0000ms, 0684ms total)
T62C0 046:742 JLINK_ReadMem (0x40012400, 0x004C Bytes, ...) -- CPU is running -- CPU_ReadMem(76 bytes @ 0x40012400) - Data: 00 00 00 00 00 01 00 00 01 01 1A 00 00 B0 01 00 ...  returns 0x00 (0000ms, 0684ms total)
T62C0 046:742 JLINK_ReadMem (0x4001244C, 0x0004 Bytes, ...) -- CPU is running -- CPU_ReadMem(4 bytes @ 0x4001244C) - Data: 23 00 00 00  returns 0x00 (0001ms, 0685ms total)
T223C 046:752 JLINK_IsHalted()  returns FALSE (0000ms, 0685ms total)
T223C 046:854 JLINK_IsHalted()  returns FALSE (0000ms, 0685ms total)
T223C 046:954 JLINK_IsHalted()  returns FALSE (0000ms, 0685ms total)
T223C 047:055 JLINK_IsHalted()  returns FALSE (0000ms, 0685ms total)
T223C 047:156 JLINK_ReadMemU32(0xE0001004, 0x0001 Items, ...) -- CPU is running -- CPU_ReadMem(4 bytes @ 0xE0001004) - Data: 6B 33 F5 04  returns 0x01 (0001ms, 0686ms total)
T62C0 047:158 JLINK_ReadMem (0x20000009, 0x0001 Bytes, ...) -- CPU is running -- CPU_ReadMem(1 bytes @ 0x20000009) - Data: 00  returns 0x00 (0000ms, 0686ms total)
T62C0 047:158 JLINK_ReadMem (0x20000008, 0x0001 Bytes, ...) -- CPU is running -- CPU_ReadMem(1 bytes @ 0x20000008) - Data: 00  returns 0x00 (0001ms, 0687ms total)
T62C0 047:159 JLINK_ReadMem (0x20000100, 0x0001 Bytes, ...) -- CPU is running -- CPU_ReadMem(1 bytes @ 0x20000100) - Data: 00  returns 0x00 (0000ms, 0687ms total)
T62C0 047:159 JLINK_ReadMem (0x200000FE, 0x0002 Bytes, ...) -- CPU is running -- CPU_ReadMem(2 bytes @ 0x200000FE) - Data: 00 00  returns 0x00 (0000ms, 0687ms total)
T62C0 047:160 JLINK_ReadMem (0x200000AF, 0x0001 Bytes, ...) -- CPU is running -- CPU_ReadMem(1 bytes @ 0x200000AF) - Data: 00  returns 0x00 (0000ms, 0687ms total)
T62C0 047:160 JLINK_ReadMem (0x20000101, 0x0001 Bytes, ...) -- CPU is running -- CPU_ReadMem(1 bytes @ 0x20000101) - Data: 00  returns 0x00 (0000ms, 0687ms total)
T62C0 047:160 JLINK_ReadMem (0x20000130, 0x0020 Bytes, ...) -- CPU is running -- CPU_ReadMem(32 bytes @ 0x20000130) - Data: 00 00 00 00 00 00 00 00 00 00 00 00 00 00 00 00 ...  returns 0x00 (0001ms, 0688ms total)
T62C0 047:161 JLINK_ReadMem (0x2000009E, 0x0001 Bytes, ...) -- CPU is running -- CPU_ReadMem(1 bytes @ 0x2000009E) - Data: 00  returns 0x00 (0000ms, 0688ms total)
T62C0 047:161 JLINK_ReadMem (0x200000EF, 0x0001 Bytes, ...) -- CPU is running -- CPU_ReadMem(1 bytes @ 0x200000EF) - Data: 00  returns 0x00 (0001ms, 0689ms total)
T62C0 047:162 JLINK_ReadMem (0x40010C00, 0x000C Bytes, ...) -- CPU is running -- CPU_ReadMem(12 bytes @ 0x40010C00) - Data: 44 43 BB 4B 44 BB 44 34 C5 C3 00 00  returns 0x00 (0000ms, 0689ms total)
T62C0 047:162 JLINK_ReadMem (0x40010C0C, 0x0004 Bytes, ...) -- CPU is running -- CPU_ReadMem(4 bytes @ 0x40010C0C) - Data: 14 80 00 00  returns 0x00 (0001ms, 0690ms total)
T62C0 047:163 JLINK_ReadMem (0x40010C18, 0x0004 Bytes, ...) -- CPU is running -- CPU_ReadMem(4 bytes @ 0x40010C18) - Data: 00 00 00 00  returns 0x00 (0001ms, 0691ms total)
T62C0 047:168 JLINK_ReadMem (0x40011000, 0x000C Bytes, ...) -- CPU is running -- CPU_ReadMem(12 bytes @ 0x40011000) - Data: 33 33 00 BB 4B 44 44 44 08 02 00 00  returns 0x00 (0001ms, 0692ms total)
T62C0 047:169 JLINK_ReadMem (0x4001100C, 0x0004 Bytes, ...) -- CPU is running -- CPU_ReadMem(4 bytes @ 0x4001100C) - Data: 08 00 00 00  returns 0x00 (0000ms, 0692ms total)
T62C0 047:169 JLINK_ReadMem (0x40011018, 0x0004 Bytes, ...) -- CPU is running -- CPU_ReadMem(4 bytes @ 0x40011018) - Data: 00 00 00 00  returns 0x00 (0000ms, 0692ms total)
T62C0 047:171 JLINK_ReadMem (0x40012C00, 0x0010 Bytes, ...) -- CPU is running -- CPU_ReadMem(16 bytes @ 0x40012C00) - Data: 00 00 00 00 3D 00 00 00 00 00 00 00 00 00 00 00  returns 0x00 (0001ms, 0693ms total)
T62C0 047:172 JLINK_ReadMem (0x40012C10, 0x0004 Bytes, ...) -- CPU is running -- CPU_ReadMem(4 bytes @ 0x40012C10) - Data: 21 00 00 00  returns 0x00 (0000ms, 0693ms total)
T62C0 047:172 JLINK_ReadMem (0x40012C18, 0x0014 Bytes, ...) -- CPU is running -- CPU_ReadMem(20 bytes @ 0x40012C18) - Data: 60 60 00 00 00 00 00 00 00 03 00 00 00 00 00 00 ...  returns 0x00 (0001ms, 0694ms total)
T62C0 047:173 JLINK_ReadMem (0x40012C2C, 0x0004 Bytes, ...) -- CPU is running -- CPU_ReadMem(4 bytes @ 0x40012C2C) - Data: 10 27 00 00  returns 0x00 (0000ms, 0694ms total)
T62C0 047:173 JLINK_ReadMem (0x40012C30, 0x0004 Bytes, ...) -- CPU is running -- CPU_ReadMem(4 bytes @ 0x40012C30) - Data: 00 00 00 00  returns 0x00 (0001ms, 0695ms total)
T62C0 047:174 JLINK_ReadMem (0x40012C34, 0x000C Bytes, ...) -- CPU is running -- CPU_ReadMem(12 bytes @ 0x40012C34) - Data: D0 07 00 00 C4 09 00 00 00 00 00 00  returns 0x00 (0000ms, 0695ms total)
T62C0 047:174 JLINK_ReadMem (0x40012C40, 0x0004 Bytes, ...) -- CPU is running -- CPU_ReadMem(4 bytes @ 0x40012C40) - Data: 00 00 00 00  returns 0x00 (0000ms, 0695ms total)
T62C0 047:174 JLINK_ReadMem (0x40012C44, 0x0004 Bytes, ...) -- CPU is running -- CPU_ReadMem(4 bytes @ 0x40012C44) - Data: 00 00 00 00  returns 0x00 (0001ms, 0696ms total)
T62C0 047:175 JLINK_ReadMem (0x40012C48, 0x0004 Bytes, ...) -- CPU is running -- CPU_ReadMem(4 bytes @ 0x40012C48) - Data: 00 00 00 00  returns 0x00 (0000ms, 0696ms total)
T62C0 047:175 JLINK_ReadMem (0x40012C4C, 0x0004 Bytes, ...) -- CPU is running -- CPU_ReadMem(4 bytes @ 0x40012C4C) - Data: 00 00 00 00  returns 0x00 (0001ms, 0697ms total)
T62C0 047:179 JLINK_ReadMem (0x40000000, 0x0010 Bytes, ...) -- CPU is running -- CPU_ReadMem(16 bytes @ 0x40000000) - Data: 81 00 00 00 00 00 00 00 00 00 00 00 00 00 00 00  returns 0x00 (0001ms, 0698ms total)
T62C0 047:180 JLINK_ReadMem (0x40000010, 0x0004 Bytes, ...) -- CPU is running -- CPU_ReadMem(4 bytes @ 0x40000010) - Data: 1F 00 00 00  returns 0x00 (0000ms, 0698ms total)
T62C0 047:180 JLINK_ReadMem (0x40000018, 0x0014 Bytes, ...) -- CPU is running -- CPU_ReadMem(20 bytes @ 0x40000018) - Data: 00 00 00 00 68 68 00 00 00 11 00 00 A6 01 00 00 ...  returns 0x00 (0001ms, 0699ms total)
T62C0 047:181 JLINK_ReadMem (0x4000002C, 0x0004 Bytes, ...) -- CPU is running -- CPU_ReadMem(4 bytes @ 0x4000002C) - Data: E8 03 00 00  returns 0x00 (0000ms, 0699ms total)
T62C0 047:181 JLINK_ReadMem (0x40000034, 0x000C Bytes, ...) -- CPU is running -- CPU_ReadMem(12 bytes @ 0x40000034) - Data: 00 00 00 00 00 00 00 00 C8 00 00 00  returns 0x00 (0000ms, 0699ms total)
T62C0 047:181 JLINK_ReadMem (0x40000040, 0x0004 Bytes, ...) -- CPU is running -- CPU_ReadMem(4 bytes @ 0x40000040) - Data: C8 00 00 00  returns 0x00 (0001ms, 0700ms total)
T62C0 047:182 JLINK_ReadMem (0x40000048, 0x0004 Bytes, ...) -- CPU is running -- CPU_ReadMem(4 bytes @ 0x40000048) - Data: 00 00 00 00  returns 0x00 (0001ms, 0701ms total)
T62C0 047:183 JLINK_ReadMem (0x4000004C, 0x0004 Bytes, ...) -- CPU is running -- CPU_ReadMem(4 bytes @ 0x4000004C) - Data: 81 00 00 00  returns 0x00 (0000ms, 0701ms total)
T62C0 047:195 JLINK_ReadMem (0x40012400, 0x004C Bytes, ...) -- CPU is running -- CPU_ReadMem(76 bytes @ 0x40012400) - Data: 00 00 00 00 00 01 00 00 01 01 1A 00 00 B0 01 00 ...  returns 0x00 (0001ms, 0702ms total)
T62C0 047:196 JLINK_ReadMem (0x4001244C, 0x0004 Bytes, ...) -- CPU is running -- CPU_ReadMem(4 bytes @ 0x4001244C) - Data: 23 00 00 00  returns 0x00 (0000ms, 0702ms total)
T223C 047:199 JLINK_IsHalted()  returns FALSE (0000ms, 0702ms total)
T223C 047:299 JLINK_IsHalted()  returns FALSE (0000ms, 0702ms total)
T223C 047:400 JLINK_IsHalted()  returns FALSE (0000ms, 0702ms total)
T223C 047:501 JLINK_IsHalted()  returns FALSE (0000ms, 0702ms total)
T223C 047:602 JLINK_IsHalted()  returns FALSE (0000ms, 0702ms total)
T223C 047:703 JLINK_ReadMemU32(0xE0001004, 0x0001 Items, ...) -- CPU is running -- CPU_ReadMem(4 bytes @ 0xE0001004) - Data: DB 84 4D 07  returns 0x01 (0000ms, 0702ms total)
T62C0 047:705 JLINK_ReadMem (0x20000009, 0x0001 Bytes, ...) -- CPU is running -- CPU_ReadMem(1 bytes @ 0x20000009) - Data: 00  returns 0x00 (0000ms, 0702ms total)
T62C0 047:705 JLINK_ReadMem (0x20000008, 0x0001 Bytes, ...) -- CPU is running -- CPU_ReadMem(1 bytes @ 0x20000008) - Data: 00  returns 0x00 (0001ms, 0703ms total)
T62C0 047:706 JLINK_ReadMem (0x20000100, 0x0001 Bytes, ...) -- CPU is running -- CPU_ReadMem(1 bytes @ 0x20000100) - Data: 00  returns 0x00 (0000ms, 0703ms total)
T62C0 047:706 JLINK_ReadMem (0x200000FE, 0x0002 Bytes, ...) -- CPU is running -- CPU_ReadMem(2 bytes @ 0x200000FE) - Data: 00 00  returns 0x00 (0001ms, 0704ms total)
T62C0 047:707 JLINK_ReadMem (0x200000AF, 0x0001 Bytes, ...) -- CPU is running -- CPU_ReadMem(1 bytes @ 0x200000AF) - Data: 00  returns 0x00 (0000ms, 0704ms total)
T62C0 047:707 JLINK_ReadMem (0x20000101, 0x0001 Bytes, ...) -- CPU is running -- CPU_ReadMem(1 bytes @ 0x20000101) - Data: 00  returns 0x00 (0000ms, 0704ms total)
T62C0 047:707 JLINK_ReadMem (0x20000130, 0x0020 Bytes, ...) -- CPU is running -- CPU_ReadMem(32 bytes @ 0x20000130) - Data: 00 00 00 00 00 00 00 00 00 00 00 00 00 00 00 00 ...  returns 0x00 (0001ms, 0705ms total)
T62C0 047:708 JLINK_ReadMem (0x2000009E, 0x0001 Bytes, ...) -- CPU is running -- CPU_ReadMem(1 bytes @ 0x2000009E) - Data: 00  returns 0x00 (0000ms, 0705ms total)
T62C0 047:709 JLINK_ReadMem (0x200000EF, 0x0001 Bytes, ...) -- CPU is running -- CPU_ReadMem(1 bytes @ 0x200000EF) - Data: 00  returns 0x00 (0000ms, 0705ms total)
T62C0 047:709 JLINK_ReadMem (0x40010C00, 0x000C Bytes, ...) -- CPU is running -- CPU_ReadMem(12 bytes @ 0x40010C00) - Data: 44 43 BB 4B 44 BB 44 34 C5 CF 00 00  returns 0x00 (0000ms, 0705ms total)
T62C0 047:709 JLINK_ReadMem (0x40010C0C, 0x0004 Bytes, ...) -- CPU is running -- CPU_ReadMem(4 bytes @ 0x40010C0C) - Data: 14 80 00 00  returns 0x00 (0001ms, 0706ms total)
T62C0 047:710 JLINK_ReadMem (0x40010C18, 0x0004 Bytes, ...) -- CPU is running -- CPU_ReadMem(4 bytes @ 0x40010C18) - Data: 00 00 00 00  returns 0x00 (0000ms, 0706ms total)
T62C0 047:712 JLINK_ReadMem (0x40011000, 0x000C Bytes, ...) -- CPU is running -- CPU_ReadMem(12 bytes @ 0x40011000) - Data: 33 33 00 BB 4B 44 44 44 08 02 00 00  returns 0x00 (0001ms, 0707ms total)
T62C0 047:713 JLINK_ReadMem (0x4001100C, 0x0004 Bytes, ...) -- CPU is running -- CPU_ReadMem(4 bytes @ 0x4001100C) - Data: 08 00 00 00  returns 0x00 (0000ms, 0707ms total)
T62C0 047:713 JLINK_ReadMem (0x40011018, 0x0004 Bytes, ...) -- CPU is running -- CPU_ReadMem(4 bytes @ 0x40011018) - Data: 00 00 00 00  returns 0x00 (0000ms, 0707ms total)
T62C0 047:715 JLINK_ReadMem (0x40012C00, 0x0010 Bytes, ...) -- CPU is running -- CPU_ReadMem(16 bytes @ 0x40012C00) - Data: 00 00 00 00 3D 00 00 00 00 00 00 00 00 00 00 00  returns 0x00 (0000ms, 0708ms total)
T62C0 047:716 JLINK_ReadMem (0x40012C10, 0x0004 Bytes, ...) -- CPU is running -- CPU_ReadMem(4 bytes @ 0x40012C10) - Data: 21 00 00 00  returns 0x00 (0000ms, 0708ms total)
T62C0 047:716 JLINK_ReadMem (0x40012C18, 0x0014 Bytes, ...) -- CPU is running -- CPU_ReadMem(20 bytes @ 0x40012C18) - Data: 60 60 00 00 00 00 00 00 00 03 00 00 00 00 00 00 ...  returns 0x00 (0001ms, 0709ms total)
T62C0 047:717 JLINK_ReadMem (0x40012C2C, 0x0004 Bytes, ...) -- CPU is running -- CPU_ReadMem(4 bytes @ 0x40012C2C) - Data: 10 27 00 00  returns 0x00 (0000ms, 0709ms total)
T62C0 047:717 JLINK_ReadMem (0x40012C30, 0x0004 Bytes, ...) -- CPU is running -- CPU_ReadMem(4 bytes @ 0x40012C30) - Data: 00 00 00 00  returns 0x00 (0001ms, 0710ms total)
T62C0 047:718 JLINK_ReadMem (0x40012C34, 0x000C Bytes, ...) -- CPU is running -- CPU_ReadMem(12 bytes @ 0x40012C34) - Data: D0 07 00 00 C4 09 00 00 00 00 00 00  returns 0x00 (0000ms, 0710ms total)
T62C0 047:719 JLINK_ReadMem (0x40012C40, 0x0004 Bytes, ...) -- CPU is running -- CPU_ReadMem(4 bytes @ 0x40012C40) - Data: 00 00 00 00  returns 0x00 (0000ms, 0710ms total)
T62C0 047:719 JLINK_ReadMem (0x40012C44, 0x0004 Bytes, ...) -- CPU is running -- CPU_ReadMem(4 bytes @ 0x40012C44) - Data: 00 00 00 00  returns 0x00 (0000ms, 0710ms total)
T62C0 047:720 JLINK_ReadMem (0x40012C48, 0x0004 Bytes, ...) -- CPU is running -- CPU_ReadMem(4 bytes @ 0x40012C48) - Data: 00 00 00 00  returns 0x00 (0000ms, 0711ms total)
T62C0 047:720 JLINK_ReadMem (0x40012C4C, 0x0004 Bytes, ...) -- CPU is running -- CPU_ReadMem(4 bytes @ 0x40012C4C) - Data: 00 00 00 00  returns 0x00 (0000ms, 0711ms total)
T62C0 047:723 JLINK_ReadMem (0x40000000, 0x0010 Bytes, ...) -- CPU is running -- CPU_ReadMem(16 bytes @ 0x40000000) - Data: 81 00 00 00 00 00 00 00 00 00 00 00 00 00 00 00  returns 0x00 (0000ms, 0711ms total)
T62C0 047:723 JLINK_ReadMem (0x40000010, 0x0004 Bytes, ...) -- CPU is running -- CPU_ReadMem(4 bytes @ 0x40000010) - Data: 1F 00 00 00  returns 0x00 (0000ms, 0711ms total)
T62C0 047:723 JLINK_ReadMem (0x40000018, 0x0014 Bytes, ...) -- CPU is running -- CPU_ReadMem(20 bytes @ 0x40000018) - Data: 00 00 00 00 68 68 00 00 00 11 00 00 19 02 00 00 ...  returns 0x00 (0001ms, 0712ms total)
T62C0 047:724 JLINK_ReadMem (0x4000002C, 0x0004 Bytes, ...) -- CPU is running -- CPU_ReadMem(4 bytes @ 0x4000002C) - Data: E8 03 00 00  returns 0x00 (0001ms, 0713ms total)
T62C0 047:725 JLINK_ReadMem (0x40000034, 0x000C Bytes, ...) -- CPU is running -- CPU_ReadMem(12 bytes @ 0x40000034) - Data: 00 00 00 00 00 00 00 00 C8 00 00 00  returns 0x00 (0000ms, 0713ms total)
T62C0 047:725 JLINK_ReadMem (0x40000040, 0x0004 Bytes, ...) -- CPU is running -- CPU_ReadMem(4 bytes @ 0x40000040) - Data: C8 00 00 00  returns 0x00 (0001ms, 0714ms total)
T62C0 047:726 JLINK_ReadMem (0x40000048, 0x0004 Bytes, ...) -- CPU is running -- CPU_ReadMem(4 bytes @ 0x40000048) - Data: 00 00 00 00  returns 0x00 (0000ms, 0714ms total)
T62C0 047:726 JLINK_ReadMem (0x4000004C, 0x0004 Bytes, ...) -- CPU is running -- CPU_ReadMem(4 bytes @ 0x4000004C) - Data: 81 00 00 00  returns 0x00 (0001ms, 0715ms total)
T62C0 047:739 JLINK_ReadMem (0x40012400, 0x004C Bytes, ...) -- CPU is running -- CPU_ReadMem(76 bytes @ 0x40012400) - Data: 00 00 00 00 00 01 00 00 01 01 1A 00 00 B0 01 00 ...  returns 0x00 (0001ms, 0716ms total)
T62C0 047:740 JLINK_ReadMem (0x4001244C, 0x0004 Bytes, ...) -- CPU is running -- CPU_ReadMem(4 bytes @ 0x4001244C) - Data: 23 00 00 00  returns 0x00 (0001ms, 0717ms total)
T223C 047:745 JLINK_IsHalted()  returns FALSE (0001ms, 0718ms total)
T223C 047:847 JLINK_IsHalted()  returns FALSE (0000ms, 0717ms total)
T223C 047:948 JLINK_IsHalted()  returns FALSE (0000ms, 0717ms total)
T223C 048:049 JLINK_IsHalted()  returns FALSE (0000ms, 0717ms total)
T223C 048:149 JLINK_IsHalted()  returns FALSE (0000ms, 0717ms total)
T223C 048:250 JLINK_ReadMemU32(0xE0001004, 0x0001 Items, ...) -- CPU is running -- CPU_ReadMem(4 bytes @ 0xE0001004) - Data: 35 AE A6 09  returns 0x01 (0000ms, 0717ms total)
T62C0 048:250 JLINK_ReadMem (0x20000009, 0x0001 Bytes, ...) -- CPU is running -- CPU_ReadMem(1 bytes @ 0x20000009) - Data: 00  returns 0x00 (0001ms, 0718ms total)
T62C0 048:251 JLINK_ReadMem (0x20000008, 0x0001 Bytes, ...) -- CPU is running -- CPU_ReadMem(1 bytes @ 0x20000008) - Data: 00  returns 0x00 (0000ms, 0718ms total)
T62C0 048:251 JLINK_ReadMem (0x20000100, 0x0001 Bytes, ...) -- CPU is running -- CPU_ReadMem(1 bytes @ 0x20000100) - Data: 00  returns 0x00 (0001ms, 0719ms total)
T62C0 048:252 JLINK_ReadMem (0x200000FE, 0x0002 Bytes, ...) -- CPU is running -- CPU_ReadMem(2 bytes @ 0x200000FE) - Data: 00 00  returns 0x00 (0000ms, 0719ms total)
T62C0 048:252 JLINK_ReadMem (0x200000AF, 0x0001 Bytes, ...) -- CPU is running -- CPU_ReadMem(1 bytes @ 0x200000AF) - Data: 00  returns 0x00 (0000ms, 0719ms total)
T62C0 048:252 JLINK_ReadMem (0x20000101, 0x0001 Bytes, ...) -- CPU is running -- CPU_ReadMem(1 bytes @ 0x20000101) - Data: 00  returns 0x00 (0001ms, 0720ms total)
T62C0 048:253 JLINK_ReadMem (0x20000130, 0x0020 Bytes, ...) -- CPU is running -- CPU_ReadMem(32 bytes @ 0x20000130) - Data: 00 00 00 00 00 00 00 00 00 00 00 00 00 00 00 00 ...  returns 0x00 (0000ms, 0720ms total)
T62C0 048:253 JLINK_ReadMem (0x2000009E, 0x0001 Bytes, ...) -- CPU is running -- CPU_ReadMem(1 bytes @ 0x2000009E) - Data: 00  returns 0x00 (0001ms, 0721ms total)
T62C0 048:254 JLINK_ReadMem (0x200000EF, 0x0001 Bytes, ...) -- CPU is running -- CPU_ReadMem(1 bytes @ 0x200000EF) - Data: 00  returns 0x00 (0000ms, 0721ms total)
T62C0 048:254 JLINK_ReadMem (0x40010C00, 0x000C Bytes, ...) -- CPU is running -- CPU_ReadMem(12 bytes @ 0x40010C00) - Data: 44 43 BB 4B 44 BB 44 34 C5 CF 00 00  returns 0x00 (0000ms, 0721ms total)
T62C0 048:254 JLINK_ReadMem (0x40010C0C, 0x0004 Bytes, ...) -- CPU is running -- CPU_ReadMem(4 bytes @ 0x40010C0C) - Data: 14 80 00 00  returns 0x00 (0001ms, 0722ms total)
T62C0 048:255 JLINK_ReadMem (0x40010C18, 0x0004 Bytes, ...) -- CPU is running -- CPU_ReadMem(4 bytes @ 0x40010C18) - Data: 00 00 00 00  returns 0x00 (0000ms, 0722ms total)
